
T11DC 000:534 SEGGER J-Link V4.80g Log File (0003ms, 0290ms total)
T11DC 000:534 DLL Compiled: Feb 13 2014 20:50:02 (0003ms, 0290ms total)
T11DC 000:534 Logging started @ 2023-11-19 11:18 (0003ms, 0290ms total)
T11DC 000:537 JLINK_SetWarnOutHandler(...) (0000ms, 0290ms total)
T11DC 000:537 JLINK_OpenEx(...)
Firmware: J-Link ARM-OB STM32 compiled Aug 22 2012 19:52:04
Hardware: V7.00
S/N: 20090928
Feature(s): RDI,FlashDL,FlashBP,JFlash,GDBFull  returns O.K. (0292ms, 0582ms total)
T11DC 000:830 JLINK_SetErrorOutHandler(...) (0000ms, 0582ms total)
T11DC 000:830 JLINK_ExecCommand("ProjectFile = "H:\bq76940\BQ76940发货资料 20220817\3.程序\1.BQ76940（程序加CAN20230920）改电流\BMS_s940\Project\MDK-ARM\JLinkSettings.ini"", ...)  returns 0x00 (0002ms, 0584ms total)
T11DC 000:832 JLINK_ExecCommand("Device = STM32F103C6", ...)Device "STM32F103C6" selected (32 KB flash, 10 KB RAM).  returns 0x00 (0002ms, 0586ms total)
T11DC 000:834 JLINK_ExecCommand("DisableConnectionTimeout", ...)  returns 0x01 (0000ms, 0586ms total)
T11DC 000:834 JLINK_GetHardwareVersion()  returns 0x11170 (0000ms, 0586ms total)
T11DC 000:834 JLINK_GetDLLVersion()  returns 48007 (0000ms, 0586ms total)
T11DC 000:834 JLINK_GetFirmwareString(...) (0000ms, 0586ms total)
T11DC 000:837 JLINK_GetDLLVersion()  returns 48007 (0000ms, 0586ms total)
T11DC 000:837 JLINK_GetCompileDateTime() (0000ms, 0586ms total)
T11DC 000:839 JLINK_GetFirmwareString(...) (0000ms, 0587ms total)
T11DC 000:839 JLINK_GetHardwareVersion()  returns 0x11170 (0001ms, 0588ms total)
T11DC 000:842 JLINK_TIF_Select(JLINKARM_TIF_SWD)  returns 0x00 (0003ms, 0591ms total)
T11DC 000:845 JLINK_SetSpeed(1000) (0001ms, 0592ms total)
T11DC 000:846 JLINK_GetId() >0x108 TIF>Found SWD-DP with ID 0x1BA01477 >0x0D TIF> >0x28 TIF> >0x0D TIF> >0x28 TIF> >0x0D TIF> >0x21 TIF> >0x0D TIF> >0x28 TIF> >0x0D TIF> >0x28 TIF> >0x0D TIF> >0x28 TIF> >0x0D TIF> >0x21 TIF> >0x0D TIF> >0x21 TIF> >0x0D TIF> >0x28 TIF> >0x0D TIF> >0x21 TIF> >0x0D TIF> >0x21 TIF> >0x108 TIF>Found SWD-DP with ID 0x1BA01477 >0x0D TIF> >0x21 TIF> >0x0D TIF> >0x28 TIF> >0x0D TIF> >0x28 TIF> >0x0D TIF> >0x21 TIF> >0x0D TIF> >0x28 TIF> >0x0D TIF> >0x21 TIF> >0x0D TIF> >0x21 TIF>
 >0x0D TIF> >0x21 TIF> >0x0D TIF> >0x21 TIF> >0x0D TIF> >0x28 TIF> >0x0D TIF> >0x28 TIF> >0x0D TIF> >0x21 TIF> >0x0D TIF> >0x28 TIF> >0x0D TIF> >0x28 TIF> >0x0D TIF> >0x28 TIF> >0x0D TIF> >0x21 TIF> >0x0D TIF> >0x21 TIF> >0x0D TIF> >0x28 TIF> >0x0D TIF> >0x21 TIF> >0x0D TIF> >0x21 TIF>Found Cortex-M3 r1p1, Little endian. -- CPU_WriteMem(4 bytes @ 0xE0002000) -- CPU_ReadMem(4 bytes @ 0xE000EDF0) -- CPU_ReadMem(4 bytes @ 0xE0002000)FPUnit: 6 code (BP) slots and 2 literal slots
 -- CPU_ReadMem(4 bytes @ 0xE000EDFC) -- CPU_ReadMem(4 bytes @ 0xE0001000) -- CPU_WriteMem(4 bytes @ 0xE0001000) -- CPU_ReadMem(4 bytes @ 0xE00FF010)TPIU fitted. -- CPU_ReadMem(4 bytes @ 0xE00FF014) -- CPU_ReadMem(4 bytes @ 0xE00FF018) >0x0D TIF> >0x21 TIF>  returns 0x1BA01477 (0098ms, 0690ms total)
T11DC 000:944 JLINK_GetDeviceFamily()  returns 3 (0000ms, 0690ms total)
T11DC 000:945 JLINK_ReadMem (0xE00FFFF0, 0x0010 Bytes, ...) -- CPU is running -- CPU_ReadMem(16 bytes @ 0xE00FFFF0) -- Data:  0D 00 00 00 10 00 00 00 05 00 00 00 B1 00 00 00  returns 0x00 (0002ms, 0692ms total)
T11DC 000:947 JLINK_ReadMem (0xE00FFFD0, 0x0020 Bytes, ...) -- CPU is running -- CPU_ReadMem(32 bytes @ 0xE00FFFD0) -- Data:  00 00 00 00 00 00 00 00 00 00 00 00 00 00 00 00 ...  returns 0x00 (0003ms, 0695ms total)
T11DC 000:950 JLINK_ReadMem (0xE00FF000, 0x0018 Bytes, ...) -- CPU is running -- CPU_ReadMem(24 bytes @ 0xE00FF000) -- Data:  03 F0 F0 FF 03 20 F0 FF 03 30 F0 FF 03 10 F0 FF ...  returns 0x00 (0002ms, 0697ms total)
T11DC 000:952 JLINK_ReadMemU32(0xE000ED00, 0x0001 Items, ...) -- CPU is running -- CPU_ReadMem(4 bytes @ 0xE000ED00) -- Data:  31 C2 1F 41  returns 0x01 (0002ms, 0699ms total)
T11DC 000:954 JLINK_SetResetType(JLINKARM_RESET_TYPE_NORMAL)  returns JLINKARM_RESET_TYPE_NORMAL (0000ms, 0699ms total)
T11DC 000:954 JLINK_Reset() -- CPU is running -- CPU_WriteMem(4 bytes @ 0xE000EDF0) -- CPU is running -- CPU_WriteMem(4 bytes @ 0xE000EDFC) >0x35 TIF> -- CPU is running -- CPU_WriteMem(4 bytes @ 0xE000ED0C) -- CPU is running -- CPU_ReadMem(4 bytes @ 0xE000EDF0) -- CPU is running -- CPU_ReadMem(4 bytes @ 0xE000EDF0) -- CPU is running -- CPU_WriteMem(4 bytes @ 0xE000EDF0) -- CPU is running -- CPU_WriteMem(4 bytes @ 0xE000EDFC) -- CPU is running -- CPU_ReadMem(4 bytes @ 0xE000EDF0)
 -- CPU_WriteMem(4 bytes @ 0xE0002000) -- CPU_ReadMem(4 bytes @ 0xE000EDFC) -- CPU_ReadMem(4 bytes @ 0xE0001000) (0037ms, 0736ms total)
T11DC 000:991 JLINK_ReadReg(R15 (PC))  returns 0x08000100 (0000ms, 0736ms total)
T11DC 000:991 JLINK_ReadReg(XPSR)  returns 0x01000000 (0000ms, 0736ms total)
T11DC 000:991 JLINK_Halt()  returns 0x00 (0000ms, 0736ms total)
T11DC 000:991 JLINK_IsHalted()  returns TRUE (0000ms, 0736ms total)
T11DC 000:991 JLINK_ReadMemU32(0xE000EDF0, 0x0001 Items, ...) -- CPU_ReadMem(4 bytes @ 0xE000EDF0) -- Data:  03 00 03 00  returns 0x01 (0002ms, 0738ms total)
T11DC 000:993 JLINK_WriteU32(0xE000EDF0, 0xA05F0003) -- CPU_WriteMem(4 bytes @ 0xE000EDF0)  returns 0x00 (0002ms, 0740ms total)
T11DC 000:995 JLINK_WriteU32(0xE000EDFC, 0x01000000) -- CPU_WriteMem(4 bytes @ 0xE000EDFC)  returns 0x00 (0002ms, 0742ms total)
T11DC 001:000 JLINK_GetHWStatus(...)  returns 0x00 (0000ms, 0742ms total)
T11DC 001:001 JLINK_GetNumBPUnits(Type = 0xFFFFFF00)  returns 0x06 (0001ms, 0743ms total)
T11DC 001:002 JLINK_GetNumBPUnits(Type = 0xF0)  returns 0x2000 (0000ms, 0743ms total)
T11DC 001:002 JLINK_GetNumWPUnits()  returns 0x04 (0000ms, 0743ms total)
T11DC 001:004 JLINK_GetSpeed()  returns 0x3E8 (0000ms, 0743ms total)
T11DC 001:005 JLINK_ReadMemU32(0xE000E004, 0x0001 Items, ...) -- CPU_ReadMem(4 bytes @ 0xE000E004) -- Data:  01 00 00 00  returns 0x01 (0002ms, 0745ms total)
T11DC 001:007 JLINK_ReadMemU32(0xE000E004, 0x0001 Items, ...) -- CPU_ReadMem(4 bytes @ 0xE000E004) -- Data:  01 00 00 00  returns 0x01 (0002ms, 0747ms total)
T11DC 001:009 JLINK_WriteMem(0xE0001000, 0x001C Bytes, ...) -- Data:  01 00 00 00 00 00 00 00 00 00 00 00 00 00 00 00 ... -- CPU_WriteMem(28 bytes @ 0xE0001000)  returns 0x1C (0002ms, 0749ms total)
T11DC 001:011 JLINK_ReadMem (0xE0001000, 0x001C Bytes, ...) -- CPU_ReadMem(28 bytes @ 0xE0001000) -- Data:  01 00 00 40 00 00 00 00 00 00 00 00 00 00 00 00 ...  returns 0x00 (0002ms, 0751ms total)
T11DC 001:013 JLINK_ReadReg(R15 (PC))  returns 0x08000100 (0000ms, 0751ms total)
T11DC 001:013 JLINK_ReadReg(XPSR)  returns 0x01000000 (0000ms, 0751ms total)
T11DC 001:219 JLINK_SetResetType(JLINKARM_RESET_TYPE_NORMAL)  returns JLINKARM_RESET_TYPE_NORMAL (0000ms, 0751ms total)
T11DC 001:219 JLINK_Reset() -- CPU_WriteMem(4 bytes @ 0xE000EDF0) -- CPU_WriteMem(4 bytes @ 0xE000EDFC) >0x35 TIF> -- CPU_WriteMem(4 bytes @ 0xE000ED0C) -- CPU_ReadMem(4 bytes @ 0xE000EDF0) -- CPU_ReadMem(4 bytes @ 0xE000EDF0) -- CPU_WriteMem(4 bytes @ 0xE000EDF0) -- CPU_WriteMem(4 bytes @ 0xE000EDFC) -- CPU is running -- CPU_ReadMem(4 bytes @ 0xE000EDF0) -- CPU_WriteMem(4 bytes @ 0xE0002000) -- CPU_ReadMem(4 bytes @ 0xE000EDFC) -- CPU_ReadMem(4 bytes @ 0xE0001000) (0039ms, 0790ms total)
T11DC 001:258 JLINK_ReadReg(R15 (PC))  returns 0x08000100 (0000ms, 0790ms total)
T11DC 001:258 JLINK_ReadReg(XPSR)  returns 0x01000000 (0000ms, 0790ms total)
T11DC 001:259 JLINK_ReadMemU32(0xE0001004, 0x0001 Items, ...) -- CPU_ReadMem(4 bytes @ 0xE0001004) -- Data:  53 0D 00 00  returns 0x01 (0001ms, 0791ms total)
T11DC 001:977 JLINK_ReadMem (0x08000100, 0x003C Bytes, ...) -- CPU_ReadMem(64 bytes @ 0x08000100) -- Updating C cache (64 bytes @ 0x08000100) -- Read from C cache (60 bytes @ 0x08000100) -- Data:  06 48 80 47 06 48 00 47 FE E7 FE E7 FE E7 FE E7 ...  returns 0x00 (0003ms, 0794ms total)
T0B38 005:791 JLINK_SetBPEx(Addr = 0x080002EE, Type = 0xFFFFFFF2)  returns 0x00000001 (0001ms, 0795ms total)
T0B38 005:792 JLINK_Go() -- CPU_WriteMem(4 bytes @ 0xE0002000) -- CPU_WriteMem(4 bytes @ 0xE0002008) -- CPU_WriteMem(4 bytes @ 0xE000200C) -- CPU_WriteMem(4 bytes @ 0xE0002010) -- CPU_WriteMem(4 bytes @ 0xE0002014) -- CPU_WriteMem(4 bytes @ 0xE0002018) -- CPU_WriteMem(4 bytes @ 0xE000201C) -- CPU_WriteMem(4 bytes @ 0xE0001004) (0018ms, 0813ms total)
T0B38 005:911 JLINK_IsHalted()  returns TRUE (0008ms, 0821ms total)
T0B38 005:919 JLINK_Halt()  returns 0x00 (0000ms, 0813ms total)
T0B38 005:919 JLINK_IsHalted()  returns TRUE (0000ms, 0813ms total)
T0B38 005:919 JLINK_IsHalted()  returns TRUE (0000ms, 0813ms total)
T0B38 005:919 JLINK_IsHalted()  returns TRUE (0000ms, 0813ms total)
T0B38 005:919 JLINK_ReadReg(R15 (PC))  returns 0x080002EE (0001ms, 0814ms total)
T0B38 005:920 JLINK_ReadReg(XPSR)  returns 0x61000000 (0000ms, 0814ms total)
T0B38 005:920 JLINK_ClrBPEx(BPHandle = 0x00000001)  returns 0x00 (0000ms, 0814ms total)
T0B38 005:920 JLINK_ReadMemU32(0xE000ED30, 0x0001 Items, ...) -- CPU_ReadMem(4 bytes @ 0xE000ED30) -- Data:  03 00 00 00  returns 0x01 (0001ms, 0815ms total)
T0B38 005:921 JLINK_ReadMemU32(0xE0001028, 0x0001 Items, ...) -- CPU_ReadMem(4 bytes @ 0xE0001028) -- Data:  00 00 00 00  returns 0x01 (0002ms, 0817ms total)
T0B38 005:923 JLINK_ReadMemU32(0xE0001038, 0x0001 Items, ...) -- CPU_ReadMem(4 bytes @ 0xE0001038) -- Data:  00 02 00 00  returns 0x01 (0002ms, 0819ms total)
T0B38 005:925 JLINK_ReadMemU32(0xE0001048, 0x0001 Items, ...) -- CPU_ReadMem(4 bytes @ 0xE0001048) -- Data:  00 00 00 00  returns 0x01 (0002ms, 0821ms total)
T0B38 005:927 JLINK_ReadMemU32(0xE0001058, 0x0001 Items, ...) -- CPU_ReadMem(4 bytes @ 0xE0001058) -- Data:  00 00 00 00  returns 0x01 (0002ms, 0823ms total)
T0B38 005:929 JLINK_ReadReg(R0)  returns 0x080002EF (0000ms, 0823ms total)
T0B38 005:929 JLINK_ReadReg(R1)  returns 0x20000EA8 (0000ms, 0823ms total)
T0B38 005:929 JLINK_ReadReg(R2)  returns 0x00000000 (0000ms, 0823ms total)
T0B38 005:929 JLINK_ReadReg(R3)  returns 0x08006923 (0000ms, 0823ms total)
T0B38 005:929 JLINK_ReadReg(R4)  returns 0x080075A8 (0000ms, 0823ms total)
T0B38 005:929 JLINK_ReadReg(R5)  returns 0x080075A8 (0000ms, 0823ms total)
T0B38 005:929 JLINK_ReadReg(R6)  returns 0x00000000 (0001ms, 0824ms total)
T0B38 005:930 JLINK_ReadReg(R7)  returns 0x00000000 (0000ms, 0824ms total)
T0B38 005:930 JLINK_ReadReg(R8)  returns 0x00000000 (0000ms, 0824ms total)
T0B38 005:930 JLINK_ReadReg(R9)  returns 0x20000160 (0000ms, 0824ms total)
T0B38 005:930 JLINK_ReadReg(R10)  returns 0x00000000 (0000ms, 0824ms total)
T0B38 005:930 JLINK_ReadReg(R11)  returns 0x00000000 (0000ms, 0824ms total)
T0B38 005:930 JLINK_ReadReg(R12)  returns 0x00000014 (0000ms, 0824ms total)
T0B38 005:930 JLINK_ReadReg(R13 (SP))  returns 0x20000EA8 (0000ms, 0824ms total)
T0B38 005:930 JLINK_ReadReg(R14)  returns 0x080067C1 (0000ms, 0824ms total)
T0B38 005:930 JLINK_ReadReg(R15 (PC))  returns 0x080002EE (0000ms, 0824ms total)
T0B38 005:930 JLINK_ReadReg(XPSR)  returns 0x61000000 (0000ms, 0824ms total)
T0B38 005:930 JLINK_ReadReg(MSP)  returns 0x20000EA8 (0000ms, 0824ms total)
T0B38 005:930 JLINK_ReadReg(PSP)  returns 0x20000800 (0000ms, 0824ms total)
T0B38 005:930 JLINK_ReadReg(CFBP)  returns 0x00000000 (0000ms, 0824ms total)
T11DC 005:946 JLINK_ReadMemU32(0xE0001004, 0x0001 Items, ...) -- CPU_ReadMem(4 bytes @ 0xE0001004) -- Data:  7E 5F 00 00  returns 0x01 (0002ms, 0826ms total)
T11DC 005:953 JLINK_ReadMem (0x080002EC, 0x003C Bytes, ...) -- CPU_ReadMem(128 bytes @ 0x080002C0) -- Updating C cache (128 bytes @ 0x080002C0) -- Read from C cache (60 bytes @ 0x080002EC) -- Data:  10 BD 08 B5 03 F0 8C F8 4F F4 A0 60 00 F0 14 FA ...  returns 0x00 (0005ms, 0831ms total)
T11DC 006:459 JLINK_ReadMem (0x2000020A, 0x0001 Bytes, ...) -- CPU_ReadMem(64 bytes @ 0x20000200) -- Updating C cache (64 bytes @ 0x20000200) -- Read from C cache (1 bytes @ 0x2000020A) -- Data:  00  returns 0x00 (0003ms, 0834ms total)
T11DC 014:966 JLINK_ReadMem (0x08004924, 0x003C Bytes, ...) -- CPU_ReadMem(128 bytes @ 0x08004900) -- Updating C cache (128 bytes @ 0x08004900) -- Read from C cache (60 bytes @ 0x08004924) -- Data:  4F 48 90 F8 26 00 5C 49 88 70 15 B0 BD E8 F0 8F ...  returns 0x00 (0006ms, 0840ms total)
T11DC 019:930 JLINK_ReadMem (0x08003AF2, 0x0002 Bytes, ...) -- CPU_ReadMem(64 bytes @ 0x08003AC0) -- Updating C cache (64 bytes @ 0x08003AC0) -- Read from C cache (2 bytes @ 0x08003AF2) -- Data:  FF F7  returns 0x00 (0005ms, 0845ms total)
T11DC 019:935 JLINK_ReadMem (0x08003AF4, 0x003C Bytes, ...) -- CPU_ReadMem(64 bytes @ 0x08003B00) -- Updating C cache (64 bytes @ 0x08003B00) -- Read from C cache (60 bytes @ 0x08003AF4) -- Data:  61 FF FF F7 CE FF FF F7 85 FF FF 21 00 20 01 F0 ...  returns 0x00 (0003ms, 0848ms total)
T11DC 025:964 JLINK_ReadMem (0x20000278, 0x0004 Bytes, ...) -- CPU_ReadMem(64 bytes @ 0x20000240) -- Updating C cache (64 bytes @ 0x20000240) -- Read from C cache (4 bytes @ 0x20000278) -- Data:  00 00 00 00  returns 0x00 (0004ms, 0852ms total)
T0B38 034:765 JLINK_SetBPEx(Addr = 0x080039C4, Type = 0xFFFFFFF2)  returns 0x00000002 (0001ms, 0853ms total)
T0B38 034:766 JLINK_Go() -- CPU_WriteMem(4 bytes @ 0xE0002000) -- CPU_WriteMem(4 bytes @ 0xE0002008) (0008ms, 0861ms total)
T0B38 034:874 JLINK_IsHalted()  returns FALSE (0002ms, 0863ms total)
T0B38 034:977 JLINK_IsHalted()  returns FALSE (0002ms, 0863ms total)
T0B38 035:079 JLINK_IsHalted()  returns FALSE (0002ms, 0863ms total)
T0B38 035:182 JLINK_IsHalted()  returns FALSE (0001ms, 0862ms total)
T0B38 035:283 JLINK_IsHalted()  returns FALSE (0002ms, 0863ms total)
T0B38 035:386 JLINK_IsHalted()  returns FALSE (0002ms, 0863ms total)
T0B38 035:489 JLINK_IsHalted()  returns FALSE (0001ms, 0862ms total)
T0B38 035:590 JLINK_IsHalted()  returns FALSE (0002ms, 0863ms total)
T0B38 035:692 JLINK_IsHalted()  returns FALSE (0002ms, 0863ms total)
T0B38 035:794 JLINK_IsHalted()  returns FALSE (0002ms, 0863ms total)
T0B38 035:897 JLINK_IsHalted()  returns FALSE (0002ms, 0863ms total)
T0B38 036:000 JLINK_IsHalted()  returns FALSE (0001ms, 0862ms total)
T0B38 036:102 JLINK_IsHalted()  returns FALSE (0002ms, 0863ms total)
T0B38 036:205 JLINK_IsHalted()  returns TRUE (0009ms, 0870ms total)
T0B38 036:214 JLINK_Halt()  returns 0x00 (0000ms, 0861ms total)
T0B38 036:214 JLINK_IsHalted()  returns TRUE (0000ms, 0861ms total)
T0B38 036:214 JLINK_IsHalted()  returns TRUE (0000ms, 0861ms total)
T0B38 036:214 JLINK_IsHalted()  returns TRUE (0000ms, 0861ms total)
T0B38 036:214 JLINK_ReadReg(R15 (PC))  returns 0x080039C4 (0001ms, 0862ms total)
T0B38 036:215 JLINK_ReadReg(XPSR)  returns 0x61000000 (0000ms, 0862ms total)
T0B38 036:215 JLINK_ClrBPEx(BPHandle = 0x00000002)  returns 0x00 (0000ms, 0862ms total)
T0B38 036:215 JLINK_ReadMemU32(0xE000ED30, 0x0001 Items, ...) -- CPU_ReadMem(4 bytes @ 0xE000ED30) -- Data:  03 00 00 00  returns 0x01 (0002ms, 0864ms total)
T0B38 036:217 JLINK_ReadMemU32(0xE0001028, 0x0001 Items, ...) -- CPU_ReadMem(4 bytes @ 0xE0001028) -- Data:  00 00 00 00  returns 0x01 (0002ms, 0866ms total)
T0B38 036:219 JLINK_ReadMemU32(0xE0001038, 0x0001 Items, ...) -- CPU_ReadMem(4 bytes @ 0xE0001038) -- Data:  00 02 00 00  returns 0x01 (0002ms, 0868ms total)
T0B38 036:221 JLINK_ReadMemU32(0xE0001048, 0x0001 Items, ...) -- CPU_ReadMem(4 bytes @ 0xE0001048) -- Data:  00 00 00 00  returns 0x01 (0002ms, 0870ms total)
T0B38 036:223 JLINK_ReadMemU32(0xE0001058, 0x0001 Items, ...) -- CPU_ReadMem(4 bytes @ 0xE0001058) -- Data:  00 00 00 00  returns 0x01 (0002ms, 0872ms total)
T0B38 036:225 JLINK_ReadReg(R0)  returns 0x00000095 (0000ms, 0872ms total)
T0B38 036:225 JLINK_ReadReg(R1)  returns 0x00000000 (0000ms, 0872ms total)
T0B38 036:225 JLINK_ReadReg(R2)  returns 0x40010C00 (0000ms, 0872ms total)
T0B38 036:225 JLINK_ReadReg(R3)  returns 0x00000200 (0001ms, 0873ms total)
T0B38 036:226 JLINK_ReadReg(R4)  returns 0x080075A8 (0000ms, 0873ms total)
T0B38 036:226 JLINK_ReadReg(R5)  returns 0x080075A8 (0000ms, 0873ms total)
T0B38 036:226 JLINK_ReadReg(R6)  returns 0x00000000 (0000ms, 0873ms total)
T0B38 036:226 JLINK_ReadReg(R7)  returns 0x00000000 (0000ms, 0873ms total)
T0B38 036:226 JLINK_ReadReg(R8)  returns 0x00000000 (0000ms, 0873ms total)
T0B38 036:226 JLINK_ReadReg(R9)  returns 0x20000160 (0000ms, 0873ms total)
T0B38 036:226 JLINK_ReadReg(R10)  returns 0x00000000 (0001ms, 0874ms total)
T0B38 036:227 JLINK_ReadReg(R11)  returns 0x00000000 (0000ms, 0874ms total)
T0B38 036:227 JLINK_ReadReg(R12)  returns 0x00000800 (0000ms, 0874ms total)
T0B38 036:227 JLINK_ReadReg(R13 (SP))  returns 0x20000E88 (0000ms, 0874ms total)
T0B38 036:227 JLINK_ReadReg(R14)  returns 0x08005147 (0000ms, 0874ms total)
T0B38 036:227 JLINK_ReadReg(R15 (PC))  returns 0x080039C4 (0001ms, 0875ms total)
T0B38 036:228 JLINK_ReadReg(XPSR)  returns 0x61000000 (0000ms, 0875ms total)
T0B38 036:228 JLINK_ReadReg(MSP)  returns 0x20000E88 (0000ms, 0875ms total)
T0B38 036:228 JLINK_ReadReg(PSP)  returns 0x20000800 (0000ms, 0875ms total)
T0B38 036:228 JLINK_ReadReg(CFBP)  returns 0x00000000 (0000ms, 0875ms total)
T11DC 036:229 JLINK_ReadMem (0x20000E94, 0x0004 Bytes, ...) -- CPU_ReadMem(64 bytes @ 0x20000E80) -- Updating C cache (64 bytes @ 0x20000E80) -- Read from C cache (4 bytes @ 0x20000E94) -- Data:  F7 3A 00 08  returns 0x00 (0004ms, 0879ms total)
T11DC 036:233 JLINK_ReadMem (0x20000E8C, 0x0004 Bytes, ...) -- Read from C cache (4 bytes @ 0x20000E8C) -- Data:  A8 75 00 08  returns 0x00 (0000ms, 0879ms total)
T11DC 036:233 JLINK_ReadMem (0x20000E90, 0x0004 Bytes, ...) -- Read from C cache (4 bytes @ 0x20000E90) -- Data:  A8 75 00 08  returns 0x00 (0000ms, 0879ms total)
T11DC 036:233 JLINK_ReadMem (0x20000E9C, 0x0004 Bytes, ...) -- Read from C cache (4 bytes @ 0x20000E9C) -- Data:  2F 03 00 08  returns 0x00 (0000ms, 0879ms total)
T11DC 036:233 JLINK_ReadMem (0x20000E98, 0x0004 Bytes, ...) -- Read from C cache (4 bytes @ 0x20000E98) -- Data:  A8 75 00 08  returns 0x00 (0000ms, 0879ms total)
T11DC 036:233 JLINK_ReadMem (0x20000EA4, 0x0004 Bytes, ...) -- Read from C cache (4 bytes @ 0x20000EA4) -- Data:  C1 67 00 08  returns 0x00 (0000ms, 0879ms total)
T11DC 036:234 JLINK_ReadMem (0x20000E88, 0x0002 Bytes, ...) -- Read from C cache (2 bytes @ 0x20000E88) -- Data:  95 0B  returns 0x00 (0000ms, 0879ms total)
T11DC 036:268 JLINK_ReadMemU32(0xE0001004, 0x0001 Items, ...) -- CPU_ReadMem(4 bytes @ 0xE0001004) -- Data:  F3 7D D3 05  returns 0x01 (0002ms, 0881ms total)
T11DC 036:275 JLINK_ReadMem (0x080039BA, 0x0002 Bytes, ...) -- CPU_ReadMem(64 bytes @ 0x08003980) -- Updating C cache (64 bytes @ 0x08003980) -- Read from C cache (2 bytes @ 0x080039BA) -- Data:  50 20  returns 0x00 (0003ms, 0884ms total)
T11DC 036:278 JLINK_ReadMem (0x080039BC, 0x003C Bytes, ...) -- CPU_ReadMem(64 bytes @ 0x080039C0) -- Updating C cache (64 bytes @ 0x080039C0) -- Read from C cache (60 bytes @ 0x080039BC) -- Data:  01 F0 85 FC 8D F8 00 00 59 20 01 F0 80 FC 8D F8 ...  returns 0x00 (0003ms, 0887ms total)
T11DC 081:148 JLINK_ReadMem (0x20000270, 0x0004 Bytes, ...) -- CPU_ReadMem(64 bytes @ 0x20000240) -- Updating C cache (64 bytes @ 0x20000240) -- Read from C cache (4 bytes @ 0x20000270) -- Data:  00 00 00 00  returns 0x00 (0004ms, 0891ms total)
T11DC 081:594 JLINK_ReadMem (0x20000278, 0x0004 Bytes, ...) -- Read from C cache (4 bytes @ 0x20000278) -- Data:  00 00 00 00  returns 0x00 (0000ms, 0891ms total)
T11DC 103:161 JLINK_ReadMem (0x20000274, 0x0004 Bytes, ...) -- Read from C cache (4 bytes @ 0x20000274) -- Data:  00 00 00 00  returns 0x00 (0001ms, 0892ms total)
T11DC 106:074 JLINK_ReadMem (0x080039B8, 0x003C Bytes, ...) -- Read from C cache (60 bytes @ 0x080039B8) -- Data:  38 B5 50 20 01 F0 85 FC 8D F8 00 00 59 20 01 F0 ...  returns 0x00 (0001ms, 0893ms total)
T0B38 143:271 JLINK_Step() -- Read from C cache (2 bytes @ 0x080039C4) -- Simulated  returns 0x00 (0003ms, 0896ms total)
T0B38 143:274 JLINK_ReadReg(R15 (PC))  returns 0x080039C6 (0000ms, 0896ms total)
T0B38 143:274 JLINK_ReadReg(XPSR)  returns 0x21000000 (0000ms, 0896ms total)
T0B38 143:274 JLINK_ReadReg(R0)  returns 0x00000059 (0000ms, 0896ms total)
T0B38 143:274 JLINK_ReadReg(R1)  returns 0x00000000 (0000ms, 0896ms total)
T0B38 143:274 JLINK_ReadReg(R2)  returns 0x40010C00 (0000ms, 0896ms total)
T0B38 143:274 JLINK_ReadReg(R3)  returns 0x00000200 (0000ms, 0896ms total)
T0B38 143:274 JLINK_ReadReg(R4)  returns 0x080075A8 (0000ms, 0896ms total)
T0B38 143:274 JLINK_ReadReg(R5)  returns 0x080075A8 (0000ms, 0896ms total)
T0B38 143:274 JLINK_ReadReg(R6)  returns 0x00000000 (0000ms, 0896ms total)
T0B38 143:274 JLINK_ReadReg(R7)  returns 0x00000000 (0001ms, 0897ms total)
T0B38 143:275 JLINK_ReadReg(R8)  returns 0x00000000 (0000ms, 0897ms total)
T0B38 143:275 JLINK_ReadReg(R9)  returns 0x20000160 (0000ms, 0897ms total)
T0B38 143:275 JLINK_ReadReg(R10)  returns 0x00000000 (0000ms, 0897ms total)
T0B38 143:275 JLINK_ReadReg(R11)  returns 0x00000000 (0000ms, 0897ms total)
T0B38 143:275 JLINK_ReadReg(R12)  returns 0x00000800 (0000ms, 0897ms total)
T0B38 143:275 JLINK_ReadReg(R13 (SP))  returns 0x20000E88 (0000ms, 0897ms total)
T0B38 143:275 JLINK_ReadReg(R14)  returns 0x08005147 (0000ms, 0897ms total)
T0B38 143:275 JLINK_ReadReg(R15 (PC))  returns 0x080039C6 (0000ms, 0897ms total)
T0B38 143:275 JLINK_ReadReg(XPSR)  returns 0x21000000 (0000ms, 0897ms total)
T0B38 143:275 JLINK_ReadReg(MSP)  returns 0x20000E88 (0000ms, 0897ms total)
T0B38 143:275 JLINK_ReadReg(PSP)  returns 0x20000800 (0000ms, 0897ms total)
T0B38 143:275 JLINK_ReadReg(CFBP)  returns 0x00000000 (0000ms, 0897ms total)
T11DC 143:288 JLINK_ReadMem (0x20000E94, 0x0004 Bytes, ...) -- Read from C cache (4 bytes @ 0x20000E94) -- Data:  F7 3A 00 08  returns 0x00 (0000ms, 0897ms total)
T11DC 143:288 JLINK_ReadMem (0x20000E8C, 0x0004 Bytes, ...) -- Read from C cache (4 bytes @ 0x20000E8C) -- Data:  A8 75 00 08  returns 0x00 (0000ms, 0897ms total)
T11DC 143:288 JLINK_ReadMem (0x20000E90, 0x0004 Bytes, ...) -- Read from C cache (4 bytes @ 0x20000E90) -- Data:  A8 75 00 08  returns 0x00 (0000ms, 0897ms total)
T11DC 143:289 JLINK_ReadMem (0x20000E9C, 0x0004 Bytes, ...) -- Read from C cache (4 bytes @ 0x20000E9C) -- Data:  2F 03 00 08  returns 0x00 (0000ms, 0898ms total)
T11DC 143:289 JLINK_ReadMem (0x20000E98, 0x0004 Bytes, ...) -- Read from C cache (4 bytes @ 0x20000E98) -- Data:  A8 75 00 08  returns 0x00 (0000ms, 0898ms total)
T11DC 143:289 JLINK_ReadMem (0x20000EA4, 0x0004 Bytes, ...) -- Read from C cache (4 bytes @ 0x20000EA4) -- Data:  C1 67 00 08  returns 0x00 (0000ms, 0898ms total)
T11DC 143:289 JLINK_ReadMem (0x20000E88, 0x0002 Bytes, ...) -- Read from C cache (2 bytes @ 0x20000E88) -- Data:  95 0B  returns 0x00 (0000ms, 0898ms total)
T11DC 143:289 JLINK_ReadMemU32(0xE0001004, 0x0001 Items, ...) -- Data:  F3 7D D3 05  returns 0x01 (0000ms, 0898ms total)
T11DC 143:297 JLINK_ReadMem (0x080039C6, 0x0002 Bytes, ...) -- Read from C cache (2 bytes @ 0x080039C6) -- Data:  01 F0  returns 0x00 (0001ms, 0899ms total)
T11DC 143:298 JLINK_ReadMem (0x080039C8, 0x003C Bytes, ...) -- CPU_ReadMem(64 bytes @ 0x08003A00) -- Updating C cache (64 bytes @ 0x08003A00) -- Read from C cache (60 bytes @ 0x080039C8) -- Data:  80 FC 8D F8 01 00 9D F8 00 10 01 F0 0C 01 49 00 ...  returns 0x00 (0003ms, 0902ms total)
T0B38 144:241 JLINK_SetBPEx(Addr = 0x080039CA, Type = 0xFFFFFFF2)  returns 0x00000003 (0000ms, 0902ms total)
T0B38 144:241 JLINK_SetBPEx(Addr = 0x080039C4, Type = 0xFFFFFFF2)  returns 0x00000004 (0000ms, 0902ms total)
T0B38 144:241 JLINK_Go() -- CPU_WriteMem(4 bytes @ 0xE0002000) -- CPU_WriteMem(4 bytes @ 0xE0002000) -- CPU_WriteMem(4 bytes @ 0xE0002008) -- CPU_WriteMem(4 bytes @ 0xE000200C) -- CPU_WriteMem(4 bytes @ 0xE0001004) (0011ms, 0913ms total)
T0B38 144:352 JLINK_IsHalted()  returns TRUE (0008ms, 0921ms total)
T0B38 144:360 JLINK_Halt()  returns 0x00 (0001ms, 0914ms total)
T0B38 144:361 JLINK_IsHalted()  returns TRUE (0000ms, 0914ms total)
T0B38 144:361 JLINK_IsHalted()  returns TRUE (0000ms, 0914ms total)
T0B38 144:361 JLINK_IsHalted()  returns TRUE (0000ms, 0914ms total)
T0B38 144:361 JLINK_ReadReg(R15 (PC))  returns 0x080039CA (0000ms, 0914ms total)
T0B38 144:361 JLINK_ReadReg(XPSR)  returns 0x61000000 (0000ms, 0914ms total)
T0B38 144:361 JLINK_ClrBPEx(BPHandle = 0x00000003)  returns 0x00 (0000ms, 0914ms total)
T0B38 144:361 JLINK_ClrBPEx(BPHandle = 0x00000004)  returns 0x00 (0000ms, 0914ms total)
T0B38 144:361 JLINK_ReadMemU32(0xE000ED30, 0x0001 Items, ...) -- CPU_ReadMem(4 bytes @ 0xE000ED30) -- Data:  03 00 00 00  returns 0x01 (0001ms, 0915ms total)
T0B38 144:362 JLINK_ReadMemU32(0xE0001028, 0x0001 Items, ...) -- CPU_ReadMem(4 bytes @ 0xE0001028) -- Data:  00 00 00 00  returns 0x01 (0002ms, 0917ms total)
T0B38 144:364 JLINK_ReadMemU32(0xE0001038, 0x0001 Items, ...) -- CPU_ReadMem(4 bytes @ 0xE0001038) -- Data:  00 02 00 00  returns 0x01 (0002ms, 0919ms total)
T0B38 144:366 JLINK_ReadMemU32(0xE0001048, 0x0001 Items, ...) -- CPU_ReadMem(4 bytes @ 0xE0001048) -- Data:  00 00 00 00  returns 0x01 (0002ms, 0921ms total)
T0B38 144:368 JLINK_ReadMemU32(0xE0001058, 0x0001 Items, ...) -- CPU_ReadMem(4 bytes @ 0xE0001058) -- Data:  00 00 00 00  returns 0x01 (0002ms, 0923ms total)
T0B38 144:371 JLINK_ReadReg(R0)  returns 0x00000082 (0000ms, 0923ms total)
T0B38 144:371 JLINK_ReadReg(R1)  returns 0x00000000 (0000ms, 0923ms total)
T0B38 144:371 JLINK_ReadReg(R2)  returns 0x40010C00 (0000ms, 0923ms total)
T0B38 144:371 JLINK_ReadReg(R3)  returns 0x00000000 (0000ms, 0923ms total)
T0B38 144:371 JLINK_ReadReg(R4)  returns 0x080075A8 (0000ms, 0923ms total)
T0B38 144:371 JLINK_ReadReg(R5)  returns 0x080075A8 (0000ms, 0923ms total)
T0B38 144:371 JLINK_ReadReg(R6)  returns 0x00000000 (0000ms, 0923ms total)
T0B38 144:371 JLINK_ReadReg(R7)  returns 0x00000000 (0000ms, 0923ms total)
T0B38 144:371 JLINK_ReadReg(R8)  returns 0x00000000 (0000ms, 0923ms total)
T0B38 144:371 JLINK_ReadReg(R9)  returns 0x20000160 (0000ms, 0923ms total)
T0B38 144:371 JLINK_ReadReg(R10)  returns 0x00000000 (0000ms, 0923ms total)
T0B38 144:371 JLINK_ReadReg(R11)  returns 0x00000000 (0000ms, 0923ms total)
T0B38 144:371 JLINK_ReadReg(R12)  returns 0x00000800 (0000ms, 0923ms total)
T0B38 144:371 JLINK_ReadReg(R13 (SP))  returns 0x20000E88 (0000ms, 0923ms total)
T0B38 144:372 JLINK_ReadReg(R14)  returns 0x08005147 (0000ms, 0924ms total)
T0B38 144:372 JLINK_ReadReg(R15 (PC))  returns 0x080039CA (0000ms, 0924ms total)
T0B38 144:372 JLINK_ReadReg(XPSR)  returns 0x61000000 (0000ms, 0924ms total)
T0B38 144:372 JLINK_ReadReg(MSP)  returns 0x20000E88 (0000ms, 0924ms total)
T0B38 144:372 JLINK_ReadReg(PSP)  returns 0x20000800 (0000ms, 0924ms total)
T0B38 144:372 JLINK_ReadReg(CFBP)  returns 0x00000000 (0000ms, 0924ms total)
T11DC 144:373 JLINK_ReadMem (0x20000E94, 0x0004 Bytes, ...) -- CPU_ReadMem(64 bytes @ 0x20000E80) -- Updating C cache (64 bytes @ 0x20000E80) -- Read from C cache (4 bytes @ 0x20000E94) -- Data:  F7 3A 00 08  returns 0x00 (0003ms, 0927ms total)
T11DC 144:377 JLINK_ReadMem (0x20000E8C, 0x0004 Bytes, ...) -- Read from C cache (4 bytes @ 0x20000E8C) -- Data:  A8 75 00 08  returns 0x00 (0000ms, 0928ms total)
T11DC 144:377 JLINK_ReadMem (0x20000E90, 0x0004 Bytes, ...) -- Read from C cache (4 bytes @ 0x20000E90) -- Data:  A8 75 00 08  returns 0x00 (0000ms, 0928ms total)
T11DC 144:377 JLINK_ReadMem (0x20000E9C, 0x0004 Bytes, ...) -- Read from C cache (4 bytes @ 0x20000E9C) -- Data:  2F 03 00 08  returns 0x00 (0000ms, 0928ms total)
T11DC 144:377 JLINK_ReadMem (0x20000E98, 0x0004 Bytes, ...) -- Read from C cache (4 bytes @ 0x20000E98) -- Data:  A8 75 00 08  returns 0x00 (0000ms, 0928ms total)
T11DC 144:377 JLINK_ReadMem (0x20000EA4, 0x0004 Bytes, ...) -- Read from C cache (4 bytes @ 0x20000EA4) -- Data:  C1 67 00 08  returns 0x00 (0000ms, 0928ms total)
T11DC 144:377 JLINK_ReadMem (0x20000E88, 0x0002 Bytes, ...) -- Read from C cache (2 bytes @ 0x20000E88) -- Data:  95 0B  returns 0x00 (0000ms, 0928ms total)
T11DC 144:377 JLINK_ReadMemU32(0xE0001004, 0x0001 Items, ...) -- CPU_ReadMem(4 bytes @ 0xE0001004) -- Data:  C2 A0 D4 05  returns 0x01 (0002ms, 0930ms total)
T0B38 145:057 JLINK_ReadMem (0x080039CA, 0x0002 Bytes, ...) -- CPU_ReadMem(64 bytes @ 0x080039C0) -- Updating C cache (64 bytes @ 0x080039C0) -- Read from C cache (2 bytes @ 0x080039CA) -- Data:  8D F8  returns 0x00 (0004ms, 0934ms total)
T0B38 145:061 JLINK_ReadMem (0x080039CC, 0x003C Bytes, ...) -- CPU_ReadMem(64 bytes @ 0x08003A00) -- Updating C cache (64 bytes @ 0x08003A00) -- Read from C cache (60 bytes @ 0x080039CC) -- Data:  01 00 9D F8 00 10 01 F0 0C 01 49 00 9D F8 01 20 ...  returns 0x00 (0002ms, 0936ms total)
T0B38 145:063 JLINK_Step() -- Read from C cache (2 bytes @ 0x080039CA) -- Read from C cache (2 bytes @ 0x080039CC) -- Not simulated -- CPU_WriteMem(4 bytes @ 0xE0002008) -- CPU_WriteMem(4 bytes @ 0xE000200C)  returns 0x00 (0015ms, 0951ms total)
T0B38 145:078 JLINK_ReadReg(R15 (PC))  returns 0x080039CE (0001ms, 0952ms total)
T0B38 145:079 JLINK_ReadReg(XPSR)  returns 0x61000000 (0000ms, 0952ms total)
T0B38 145:079 JLINK_ReadReg(R0)  returns 0x00000082 (0000ms, 0952ms total)
T0B38 145:079 JLINK_ReadReg(R1)  returns 0x00000000 (0000ms, 0952ms total)
T0B38 145:079 JLINK_ReadReg(R2)  returns 0x40010C00 (0000ms, 0952ms total)
T0B38 145:079 JLINK_ReadReg(R3)  returns 0x00000000 (0000ms, 0952ms total)
T0B38 145:079 JLINK_ReadReg(R4)  returns 0x080075A8 (0000ms, 0952ms total)
T0B38 145:079 JLINK_ReadReg(R5)  returns 0x080075A8 (0000ms, 0952ms total)
T0B38 145:079 JLINK_ReadReg(R6)  returns 0x00000000 (0000ms, 0952ms total)
T0B38 145:079 JLINK_ReadReg(R7)  returns 0x00000000 (0000ms, 0952ms total)
T0B38 145:079 JLINK_ReadReg(R8)  returns 0x00000000 (0000ms, 0952ms total)
T0B38 145:079 JLINK_ReadReg(R9)  returns 0x20000160 (0000ms, 0952ms total)
T0B38 145:079 JLINK_ReadReg(R10)  returns 0x00000000 (0000ms, 0952ms total)
T0B38 145:079 JLINK_ReadReg(R11)  returns 0x00000000 (0001ms, 0953ms total)
T0B38 145:080 JLINK_ReadReg(R12)  returns 0x00000800 (0000ms, 0953ms total)
T0B38 145:080 JLINK_ReadReg(R13 (SP))  returns 0x20000E88 (0000ms, 0953ms total)
T0B38 145:080 JLINK_ReadReg(R14)  returns 0x08005147 (0000ms, 0953ms total)
T0B38 145:080 JLINK_ReadReg(R15 (PC))  returns 0x080039CE (0000ms, 0953ms total)
T0B38 145:080 JLINK_ReadReg(XPSR)  returns 0x61000000 (0000ms, 0953ms total)
T0B38 145:080 JLINK_ReadReg(MSP)  returns 0x20000E88 (0000ms, 0953ms total)
T0B38 145:080 JLINK_ReadReg(PSP)  returns 0x20000800 (0000ms, 0953ms total)
T0B38 145:080 JLINK_ReadReg(CFBP)  returns 0x00000000 (0000ms, 0953ms total)
T11DC 145:084 JLINK_ReadMem (0x20000E94, 0x0004 Bytes, ...) -- CPU_ReadMem(64 bytes @ 0x20000E80) -- Updating C cache (64 bytes @ 0x20000E80) -- Read from C cache (4 bytes @ 0x20000E94) -- Data:  F7 3A 00 08  returns 0x00 (0003ms, 0956ms total)
T11DC 145:087 JLINK_ReadMem (0x20000E8C, 0x0004 Bytes, ...) -- Read from C cache (4 bytes @ 0x20000E8C) -- Data:  A8 75 00 08  returns 0x00 (0001ms, 0957ms total)
T11DC 145:088 JLINK_ReadMem (0x20000E90, 0x0004 Bytes, ...) -- Read from C cache (4 bytes @ 0x20000E90) -- Data:  A8 75 00 08  returns 0x00 (0000ms, 0957ms total)
T11DC 145:088 JLINK_ReadMem (0x20000E9C, 0x0004 Bytes, ...) -- Read from C cache (4 bytes @ 0x20000E9C) -- Data:  2F 03 00 08  returns 0x00 (0000ms, 0957ms total)
T11DC 145:088 JLINK_ReadMem (0x20000E98, 0x0004 Bytes, ...) -- Read from C cache (4 bytes @ 0x20000E98) -- Data:  A8 75 00 08  returns 0x00 (0000ms, 0957ms total)
T11DC 145:088 JLINK_ReadMem (0x20000EA4, 0x0004 Bytes, ...) -- Read from C cache (4 bytes @ 0x20000EA4) -- Data:  C1 67 00 08  returns 0x00 (0000ms, 0957ms total)
T11DC 145:088 JLINK_ReadMem (0x20000E88, 0x0002 Bytes, ...) -- Read from C cache (2 bytes @ 0x20000E88) -- Data:  95 82  returns 0x00 (0000ms, 0957ms total)
T11DC 145:090 JLINK_ReadMemU32(0xE0001004, 0x0001 Items, ...) -- CPU_ReadMem(4 bytes @ 0xE0001004) -- Data:  C3 A0 D4 05  returns 0x01 (0002ms, 0959ms total)
T11DC 147:073 JLINK_ReadMem (0x20000278, 0x0004 Bytes, ...) -- CPU_ReadMem(64 bytes @ 0x20000240) -- Updating C cache (64 bytes @ 0x20000240) -- Read from C cache (4 bytes @ 0x20000278) -- Data:  00 00 00 00  returns 0x00 (0004ms, 0963ms total)
T0B38 148:942 JLINK_ReadMem (0x080039CE, 0x0002 Bytes, ...) -- CPU_ReadMem(64 bytes @ 0x080039C0) -- Updating C cache (64 bytes @ 0x080039C0) -- Read from C cache (2 bytes @ 0x080039CE) -- Data:  9D F8  returns 0x00 (0004ms, 0967ms total)
T0B38 148:946 JLINK_ReadMem (0x080039D0, 0x003C Bytes, ...) -- CPU_ReadMem(64 bytes @ 0x08003A00) -- Updating C cache (64 bytes @ 0x08003A00) -- Read from C cache (60 bytes @ 0x080039D0) -- Data:  00 10 01 F0 0C 01 49 00 9D F8 01 20 01 EB 52 10 ...  returns 0x00 (0003ms, 0970ms total)
T0B38 148:949 JLINK_Step() -- Read from C cache (2 bytes @ 0x080039CE) -- Read from C cache (2 bytes @ 0x080039D0) -- Not simulated  returns 0x00 (0013ms, 0983ms total)
T0B38 148:962 JLINK_ReadReg(R15 (PC))  returns 0x080039D2 (0000ms, 0983ms total)
T0B38 148:962 JLINK_ReadReg(XPSR)  returns 0x61000000 (0000ms, 0983ms total)
T0B38 148:962 JLINK_ReadReg(R0)  returns 0x00000082 (0000ms, 0983ms total)
T0B38 148:962 JLINK_ReadReg(R1)  returns 0x00000095 (0000ms, 0983ms total)
T0B38 148:962 JLINK_ReadReg(R2)  returns 0x40010C00 (0000ms, 0983ms total)
T0B38 148:962 JLINK_ReadReg(R3)  returns 0x00000000 (0000ms, 0983ms total)
T0B38 148:962 JLINK_ReadReg(R4)  returns 0x080075A8 (0001ms, 0984ms total)
T0B38 148:963 JLINK_ReadReg(R5)  returns 0x080075A8 (0000ms, 0984ms total)
T0B38 148:963 JLINK_ReadReg(R6)  returns 0x00000000 (0000ms, 0984ms total)
T0B38 148:963 JLINK_ReadReg(R7)  returns 0x00000000 (0000ms, 0984ms total)
T0B38 148:963 JLINK_ReadReg(R8)  returns 0x00000000 (0000ms, 0984ms total)
T0B38 148:963 JLINK_ReadReg(R9)  returns 0x20000160 (0000ms, 0984ms total)
T0B38 148:963 JLINK_ReadReg(R10)  returns 0x00000000 (0000ms, 0984ms total)
T0B38 148:963 JLINK_ReadReg(R11)  returns 0x00000000 (0000ms, 0984ms total)
T0B38 148:963 JLINK_ReadReg(R12)  returns 0x00000800 (0000ms, 0984ms total)
T0B38 148:963 JLINK_ReadReg(R13 (SP))  returns 0x20000E88 (0000ms, 0984ms total)
T0B38 148:963 JLINK_ReadReg(R14)  returns 0x08005147 (0000ms, 0984ms total)
T0B38 148:963 JLINK_ReadReg(R15 (PC))  returns 0x080039D2 (0000ms, 0984ms total)
T0B38 148:963 JLINK_ReadReg(XPSR)  returns 0x61000000 (0000ms, 0984ms total)
T0B38 148:963 JLINK_ReadReg(MSP)  returns 0x20000E88 (0000ms, 0984ms total)
T0B38 148:963 JLINK_ReadReg(PSP)  returns 0x20000800 (0001ms, 0985ms total)
T0B38 148:964 JLINK_ReadReg(CFBP)  returns 0x00000000 (0000ms, 0985ms total)
T11DC 148:964 JLINK_ReadMem (0x20000E94, 0x0004 Bytes, ...) -- CPU_ReadMem(64 bytes @ 0x20000E80) -- Updating C cache (64 bytes @ 0x20000E80) -- Read from C cache (4 bytes @ 0x20000E94) -- Data:  F7 3A 00 08  returns 0x00 (0004ms, 0989ms total)
T11DC 148:968 JLINK_ReadMem (0x20000E8C, 0x0004 Bytes, ...) -- Read from C cache (4 bytes @ 0x20000E8C) -- Data:  A8 75 00 08  returns 0x00 (0000ms, 0989ms total)
T11DC 148:968 JLINK_ReadMem (0x20000E90, 0x0004 Bytes, ...) -- Read from C cache (4 bytes @ 0x20000E90) -- Data:  A8 75 00 08  returns 0x00 (0000ms, 0989ms total)
T11DC 148:968 JLINK_ReadMem (0x20000E9C, 0x0004 Bytes, ...) -- Read from C cache (4 bytes @ 0x20000E9C) -- Data:  2F 03 00 08  returns 0x00 (0000ms, 0989ms total)
T11DC 148:968 JLINK_ReadMem (0x20000E98, 0x0004 Bytes, ...) -- Read from C cache (4 bytes @ 0x20000E98) -- Data:  A8 75 00 08  returns 0x00 (0000ms, 0989ms total)
T11DC 148:968 JLINK_ReadMem (0x20000EA4, 0x0004 Bytes, ...) -- Read from C cache (4 bytes @ 0x20000EA4) -- Data:  C1 67 00 08  returns 0x00 (0001ms, 0990ms total)
T11DC 148:969 JLINK_ReadMem (0x20000E88, 0x0002 Bytes, ...) -- Read from C cache (2 bytes @ 0x20000E88) -- Data:  95 82  returns 0x00 (0000ms, 0990ms total)
T11DC 148:970 JLINK_ReadMemU32(0xE0001004, 0x0001 Items, ...) -- CPU_ReadMem(4 bytes @ 0xE0001004) -- Data:  C5 A0 D4 05  returns 0x01 (0002ms, 0992ms total)
T0B38 149:637 JLINK_ReadMem (0x080039D2, 0x0002 Bytes, ...) -- CPU_ReadMem(64 bytes @ 0x080039C0) -- Updating C cache (64 bytes @ 0x080039C0) -- Read from C cache (2 bytes @ 0x080039D2) -- Data:  01 F0  returns 0x00 (0004ms, 0996ms total)
T0B38 149:641 JLINK_ReadMem (0x080039D4, 0x003C Bytes, ...) -- CPU_ReadMem(64 bytes @ 0x08003A00) -- Updating C cache (64 bytes @ 0x08003A00) -- Read from C cache (60 bytes @ 0x080039D4) -- Data:  0C 01 49 00 9D F8 01 20 01 EB 52 10 02 F0 F6 FC ...  returns 0x00 (0003ms, 0999ms total)
T0B38 149:644 JLINK_Step() -- Read from C cache (2 bytes @ 0x080039D2) -- Read from C cache (2 bytes @ 0x080039D4) -- Simulated  returns 0x00 (0002ms, 1001ms total)
T0B38 149:646 JLINK_ReadReg(R15 (PC))  returns 0x080039D6 (0000ms, 1001ms total)
T0B38 149:646 JLINK_ReadReg(XPSR)  returns 0x61000000 (0000ms, 1001ms total)
T0B38 149:646 JLINK_ReadReg(R0)  returns 0x00000082 (0000ms, 1001ms total)
T0B38 149:646 JLINK_ReadReg(R1)  returns 0x00000004 (0000ms, 1001ms total)
T0B38 149:646 JLINK_ReadReg(R2)  returns 0x40010C00 (0000ms, 1001ms total)
T0B38 149:646 JLINK_ReadReg(R3)  returns 0x00000000 (0000ms, 1001ms total)
T0B38 149:646 JLINK_ReadReg(R4)  returns 0x080075A8 (0000ms, 1001ms total)
T0B38 149:646 JLINK_ReadReg(R5)  returns 0x080075A8 (0000ms, 1001ms total)
T0B38 149:647 JLINK_ReadReg(R6)  returns 0x00000000 (0000ms, 1002ms total)
T0B38 149:647 JLINK_ReadReg(R7)  returns 0x00000000 (0000ms, 1002ms total)
T0B38 149:647 JLINK_ReadReg(R8)  returns 0x00000000 (0000ms, 1002ms total)
T0B38 149:647 JLINK_ReadReg(R9)  returns 0x20000160 (0000ms, 1002ms total)
T0B38 149:647 JLINK_ReadReg(R10)  returns 0x00000000 (0000ms, 1002ms total)
T0B38 149:647 JLINK_ReadReg(R11)  returns 0x00000000 (0000ms, 1002ms total)
T0B38 149:647 JLINK_ReadReg(R12)  returns 0x00000800 (0000ms, 1002ms total)
T0B38 149:647 JLINK_ReadReg(R13 (SP))  returns 0x20000E88 (0000ms, 1002ms total)
T0B38 149:647 JLINK_ReadReg(R14)  returns 0x08005147 (0000ms, 1002ms total)
T0B38 149:647 JLINK_ReadReg(R15 (PC))  returns 0x080039D6 (0000ms, 1002ms total)
T0B38 149:647 JLINK_ReadReg(XPSR)  returns 0x61000000 (0000ms, 1002ms total)
T0B38 149:647 JLINK_ReadReg(MSP)  returns 0x20000E88 (0000ms, 1002ms total)
T0B38 149:647 JLINK_ReadReg(PSP)  returns 0x20000800 (0001ms, 1003ms total)
T0B38 149:648 JLINK_ReadReg(CFBP)  returns 0x00000000 (0000ms, 1003ms total)
T11DC 149:659 JLINK_ReadMem (0x20000E94, 0x0004 Bytes, ...) -- Read from C cache (4 bytes @ 0x20000E94) -- Data:  F7 3A 00 08  returns 0x00 (0000ms, 1003ms total)
T11DC 149:659 JLINK_ReadMem (0x20000E8C, 0x0004 Bytes, ...) -- Read from C cache (4 bytes @ 0x20000E8C) -- Data:  A8 75 00 08  returns 0x00 (0000ms, 1003ms total)
T11DC 149:659 JLINK_ReadMem (0x20000E90, 0x0004 Bytes, ...) -- Read from C cache (4 bytes @ 0x20000E90) -- Data:  A8 75 00 08  returns 0x00 (0001ms, 1004ms total)
T11DC 149:660 JLINK_ReadMem (0x20000E9C, 0x0004 Bytes, ...) -- Read from C cache (4 bytes @ 0x20000E9C) -- Data:  2F 03 00 08  returns 0x00 (0000ms, 1004ms total)
T11DC 149:660 JLINK_ReadMem (0x20000E98, 0x0004 Bytes, ...) -- Read from C cache (4 bytes @ 0x20000E98) -- Data:  A8 75 00 08  returns 0x00 (0000ms, 1004ms total)
T11DC 149:660 JLINK_ReadMem (0x20000EA4, 0x0004 Bytes, ...) -- Read from C cache (4 bytes @ 0x20000EA4) -- Data:  C1 67 00 08  returns 0x00 (0000ms, 1004ms total)
T11DC 149:660 JLINK_ReadMem (0x20000E88, 0x0002 Bytes, ...) -- Read from C cache (2 bytes @ 0x20000E88) -- Data:  95 82  returns 0x00 (0000ms, 1004ms total)
T11DC 149:660 JLINK_ReadMemU32(0xE0001004, 0x0001 Items, ...) -- Data:  C5 A0 D4 05  returns 0x01 (0000ms, 1004ms total)
T0B38 150:596 JLINK_ReadMem (0x080039D6, 0x0002 Bytes, ...) -- Read from C cache (2 bytes @ 0x080039D6) -- Data:  49 00  returns 0x00 (0001ms, 1005ms total)
T0B38 150:597 JLINK_ReadMem (0x080039D8, 0x003C Bytes, ...) -- Read from C cache (60 bytes @ 0x080039D8) -- Data:  9D F8 01 20 01 EB 52 10 02 F0 F6 FC FE 49 08 60 ...  returns 0x00 (0000ms, 1005ms total)
T0B38 150:597 JLINK_Step() -- Read from C cache (2 bytes @ 0x080039D6) -- Simulated  returns 0x00 (0001ms, 1006ms total)
T0B38 150:598 JLINK_ReadReg(R15 (PC))  returns 0x080039D8 (0000ms, 1006ms total)
T0B38 150:598 JLINK_ReadReg(XPSR)  returns 0x01000000 (0000ms, 1006ms total)
T0B38 150:598 JLINK_ReadReg(R0)  returns 0x00000082 (0000ms, 1006ms total)
T0B38 150:598 JLINK_ReadReg(R1)  returns 0x00000008 (0002ms, 1008ms total)
T0B38 150:600 JLINK_ReadReg(R2)  returns 0x40010C00 (0000ms, 1008ms total)
T0B38 150:600 JLINK_ReadReg(R3)  returns 0x00000000 (0000ms, 1008ms total)
T0B38 150:600 JLINK_ReadReg(R4)  returns 0x080075A8 (0000ms, 1008ms total)
T0B38 150:600 JLINK_ReadReg(R5)  returns 0x080075A8 (0000ms, 1008ms total)
T0B38 150:600 JLINK_ReadReg(R6)  returns 0x00000000 (0000ms, 1008ms total)
T0B38 150:600 JLINK_ReadReg(R7)  returns 0x00000000 (0000ms, 1008ms total)
T0B38 150:600 JLINK_ReadReg(R8)  returns 0x00000000 (0000ms, 1008ms total)
T0B38 150:600 JLINK_ReadReg(R9)  returns 0x20000160 (0000ms, 1008ms total)
T0B38 150:600 JLINK_ReadReg(R10)  returns 0x00000000 (0000ms, 1008ms total)
T0B38 150:600 JLINK_ReadReg(R11)  returns 0x00000000 (0000ms, 1008ms total)
T0B38 150:600 JLINK_ReadReg(R12)  returns 0x00000800 (0000ms, 1008ms total)
T0B38 150:600 JLINK_ReadReg(R13 (SP))  returns 0x20000E88 (0000ms, 1008ms total)
T0B38 150:600 JLINK_ReadReg(R14)  returns 0x08005147 (0000ms, 1008ms total)
T0B38 150:600 JLINK_ReadReg(R15 (PC))  returns 0x080039D8 (0000ms, 1008ms total)
T0B38 150:600 JLINK_ReadReg(XPSR)  returns 0x01000000 (0000ms, 1008ms total)
T0B38 150:600 JLINK_ReadReg(MSP)  returns 0x20000E88 (0000ms, 1008ms total)
T0B38 150:600 JLINK_ReadReg(PSP)  returns 0x20000800 (0000ms, 1008ms total)
T0B38 150:600 JLINK_ReadReg(CFBP)  returns 0x00000000 (0000ms, 1008ms total)
T11DC 150:614 JLINK_ReadMem (0x20000E94, 0x0004 Bytes, ...) -- Read from C cache (4 bytes @ 0x20000E94) -- Data:  F7 3A 00 08  returns 0x00 (0002ms, 1010ms total)
T11DC 150:616 JLINK_ReadMem (0x20000E8C, 0x0004 Bytes, ...) -- Read from C cache (4 bytes @ 0x20000E8C) -- Data:  A8 75 00 08  returns 0x00 (0000ms, 1010ms total)
T11DC 150:616 JLINK_ReadMem (0x20000E90, 0x0004 Bytes, ...) -- Read from C cache (4 bytes @ 0x20000E90) -- Data:  A8 75 00 08  returns 0x00 (0000ms, 1010ms total)
T11DC 150:616 JLINK_ReadMem (0x20000E9C, 0x0004 Bytes, ...) -- Read from C cache (4 bytes @ 0x20000E9C) -- Data:  2F 03 00 08  returns 0x00 (0000ms, 1010ms total)
T11DC 150:616 JLINK_ReadMem (0x20000E98, 0x0004 Bytes, ...) -- Read from C cache (4 bytes @ 0x20000E98) -- Data:  A8 75 00 08  returns 0x00 (0000ms, 1010ms total)
T11DC 150:616 JLINK_ReadMem (0x20000EA4, 0x0004 Bytes, ...) -- Read from C cache (4 bytes @ 0x20000EA4) -- Data:  C1 67 00 08  returns 0x00 (0000ms, 1010ms total)
T11DC 150:616 JLINK_ReadMem (0x20000E88, 0x0002 Bytes, ...) -- Read from C cache (2 bytes @ 0x20000E88) -- Data:  95 82  returns 0x00 (0000ms, 1010ms total)
T11DC 150:616 JLINK_ReadMemU32(0xE0001004, 0x0001 Items, ...) -- Data:  C5 A0 D4 05  returns 0x01 (0000ms, 1010ms total)
T0B38 151:357 JLINK_ReadMem (0x080039D8, 0x003C Bytes, ...) -- Read from C cache (60 bytes @ 0x080039D8) -- Data:  9D F8 01 20 01 EB 52 10 02 F0 F6 FC FE 49 08 60 ...  returns 0x00 (0000ms, 1010ms total)
T0B38 151:357 JLINK_Step() -- Read from C cache (2 bytes @ 0x080039D8) -- Read from C cache (2 bytes @ 0x080039DA) -- Not simulated -- CPU_WriteMem(4 bytes @ 0xE0001004)  returns 0x00 (0016ms, 1026ms total)
T0B38 151:373 JLINK_ReadReg(R15 (PC))  returns 0x080039DC (0000ms, 1026ms total)
T0B38 151:373 JLINK_ReadReg(XPSR)  returns 0x01000000 (0000ms, 1026ms total)
T0B38 151:373 JLINK_ReadReg(R0)  returns 0x00000082 (0000ms, 1026ms total)
T0B38 151:373 JLINK_ReadReg(R1)  returns 0x00000008 (0000ms, 1026ms total)
T0B38 151:373 JLINK_ReadReg(R2)  returns 0x00000082 (0000ms, 1026ms total)
T0B38 151:373 JLINK_ReadReg(R3)  returns 0x00000000 (0000ms, 1026ms total)
T0B38 151:373 JLINK_ReadReg(R4)  returns 0x080075A8 (0000ms, 1026ms total)
T0B38 151:373 JLINK_ReadReg(R5)  returns 0x080075A8 (0000ms, 1026ms total)
T0B38 151:373 JLINK_ReadReg(R6)  returns 0x00000000 (0000ms, 1026ms total)
T0B38 151:373 JLINK_ReadReg(R7)  returns 0x00000000 (0001ms, 1027ms total)
T0B38 151:374 JLINK_ReadReg(R8)  returns 0x00000000 (0000ms, 1027ms total)
T0B38 151:374 JLINK_ReadReg(R9)  returns 0x20000160 (0000ms, 1027ms total)
T0B38 151:374 JLINK_ReadReg(R10)  returns 0x00000000 (0000ms, 1027ms total)
T0B38 151:374 JLINK_ReadReg(R11)  returns 0x00000000 (0000ms, 1027ms total)
T0B38 151:374 JLINK_ReadReg(R12)  returns 0x00000800 (0000ms, 1027ms total)
T0B38 151:374 JLINK_ReadReg(R13 (SP))  returns 0x20000E88 (0000ms, 1027ms total)
T0B38 151:374 JLINK_ReadReg(R14)  returns 0x08005147 (0000ms, 1027ms total)
T0B38 151:374 JLINK_ReadReg(R15 (PC))  returns 0x080039DC (0000ms, 1027ms total)
T0B38 151:374 JLINK_ReadReg(XPSR)  returns 0x01000000 (0000ms, 1027ms total)
T0B38 151:374 JLINK_ReadReg(MSP)  returns 0x20000E88 (0000ms, 1027ms total)
T0B38 151:374 JLINK_ReadReg(PSP)  returns 0x20000800 (0000ms, 1027ms total)
T0B38 151:374 JLINK_ReadReg(CFBP)  returns 0x00000000 (0000ms, 1027ms total)
T11DC 151:376 JLINK_ReadMem (0x20000E94, 0x0004 Bytes, ...) -- CPU_ReadMem(64 bytes @ 0x20000E80) -- Updating C cache (64 bytes @ 0x20000E80) -- Read from C cache (4 bytes @ 0x20000E94) -- Data:  F7 3A 00 08  returns 0x00 (0004ms, 1031ms total)
T11DC 151:380 JLINK_ReadMem (0x20000E8C, 0x0004 Bytes, ...) -- Read from C cache (4 bytes @ 0x20000E8C) -- Data:  A8 75 00 08  returns 0x00 (0000ms, 1031ms total)
T11DC 151:380 JLINK_ReadMem (0x20000E90, 0x0004 Bytes, ...) -- Read from C cache (4 bytes @ 0x20000E90) -- Data:  A8 75 00 08  returns 0x00 (0000ms, 1031ms total)
T11DC 151:380 JLINK_ReadMem (0x20000E9C, 0x0004 Bytes, ...) -- Read from C cache (4 bytes @ 0x20000E9C) -- Data:  2F 03 00 08  returns 0x00 (0000ms, 1031ms total)
T11DC 151:380 JLINK_ReadMem (0x20000E98, 0x0004 Bytes, ...) -- Read from C cache (4 bytes @ 0x20000E98) -- Data:  A8 75 00 08  returns 0x00 (0000ms, 1031ms total)
T11DC 151:380 JLINK_ReadMem (0x20000EA4, 0x0004 Bytes, ...) -- Read from C cache (4 bytes @ 0x20000EA4) -- Data:  C1 67 00 08  returns 0x00 (0000ms, 1031ms total)
T11DC 151:380 JLINK_ReadMem (0x20000E88, 0x0002 Bytes, ...) -- Read from C cache (2 bytes @ 0x20000E88) -- Data:  95 82  returns 0x00 (0000ms, 1031ms total)
T11DC 151:380 JLINK_ReadMemU32(0xE0001004, 0x0001 Items, ...) -- CPU_ReadMem(4 bytes @ 0xE0001004) -- Data:  C9 A0 D4 05  returns 0x01 (0003ms, 1034ms total)
T11DC 151:388 JLINK_ReadMem (0x080039DC, 0x003C Bytes, ...) -- CPU_ReadMem(128 bytes @ 0x080039C0) -- Updating C cache (128 bytes @ 0x080039C0) -- Read from C cache (60 bytes @ 0x080039DC) -- Data:  01 EB 52 10 02 F0 F6 FC FE 49 08 60 51 20 01 F0 ...  returns 0x00 (0005ms, 1039ms total)
T0B38 152:118 JLINK_Step() -- Read from C cache (2 bytes @ 0x080039DC) -- Read from C cache (2 bytes @ 0x080039DE) -- Not simulated  returns 0x00 (0012ms, 1051ms total)
T0B38 152:130 JLINK_ReadReg(R15 (PC))  returns 0x080039E0 (0000ms, 1051ms total)
T0B38 152:130 JLINK_ReadReg(XPSR)  returns 0x01000000 (0000ms, 1051ms total)
T0B38 152:130 JLINK_ReadReg(R0)  returns 0x0000000C (0000ms, 1051ms total)
T0B38 152:130 JLINK_ReadReg(R1)  returns 0x00000008 (0000ms, 1051ms total)
T0B38 152:130 JLINK_ReadReg(R2)  returns 0x00000082 (0000ms, 1051ms total)
T0B38 152:130 JLINK_ReadReg(R3)  returns 0x00000000 (0001ms, 1052ms total)
T0B38 152:131 JLINK_ReadReg(R4)  returns 0x080075A8 (0000ms, 1052ms total)
T0B38 152:131 JLINK_ReadReg(R5)  returns 0x080075A8 (0000ms, 1052ms total)
T0B38 152:131 JLINK_ReadReg(R6)  returns 0x00000000 (0000ms, 1052ms total)
T0B38 152:131 JLINK_ReadReg(R7)  returns 0x00000000 (0000ms, 1052ms total)
T0B38 152:131 JLINK_ReadReg(R8)  returns 0x00000000 (0000ms, 1052ms total)
T0B38 152:131 JLINK_ReadReg(R9)  returns 0x20000160 (0000ms, 1052ms total)
T0B38 152:131 JLINK_ReadReg(R10)  returns 0x00000000 (0000ms, 1052ms total)
T0B38 152:131 JLINK_ReadReg(R11)  returns 0x00000000 (0000ms, 1052ms total)
T0B38 152:131 JLINK_ReadReg(R12)  returns 0x00000800 (0000ms, 1052ms total)
T0B38 152:131 JLINK_ReadReg(R13 (SP))  returns 0x20000E88 (0000ms, 1052ms total)
T0B38 152:131 JLINK_ReadReg(R14)  returns 0x08005147 (0000ms, 1052ms total)
T0B38 152:131 JLINK_ReadReg(R15 (PC))  returns 0x080039E0 (0000ms, 1052ms total)
T0B38 152:131 JLINK_ReadReg(XPSR)  returns 0x01000000 (0000ms, 1052ms total)
T0B38 152:131 JLINK_ReadReg(MSP)  returns 0x20000E88 (0000ms, 1052ms total)
T0B38 152:131 JLINK_ReadReg(PSP)  returns 0x20000800 (0001ms, 1053ms total)
T0B38 152:132 JLINK_ReadReg(CFBP)  returns 0x00000000 (0000ms, 1053ms total)
T11DC 152:137 JLINK_ReadMem (0x20000E94, 0x0004 Bytes, ...) -- CPU_ReadMem(64 bytes @ 0x20000E80) -- Updating C cache (64 bytes @ 0x20000E80) -- Read from C cache (4 bytes @ 0x20000E94) -- Data:  F7 3A 00 08  returns 0x00 (0003ms, 1056ms total)
T11DC 152:140 JLINK_ReadMem (0x20000E8C, 0x0004 Bytes, ...) -- Read from C cache (4 bytes @ 0x20000E8C) -- Data:  A8 75 00 08  returns 0x00 (0000ms, 1056ms total)
T11DC 152:140 JLINK_ReadMem (0x20000E90, 0x0004 Bytes, ...) -- Read from C cache (4 bytes @ 0x20000E90) -- Data:  A8 75 00 08  returns 0x00 (0000ms, 1056ms total)
T11DC 152:140 JLINK_ReadMem (0x20000E9C, 0x0004 Bytes, ...) -- Read from C cache (4 bytes @ 0x20000E9C) -- Data:  2F 03 00 08  returns 0x00 (0000ms, 1056ms total)
T11DC 152:140 JLINK_ReadMem (0x20000E98, 0x0004 Bytes, ...) -- Read from C cache (4 bytes @ 0x20000E98) -- Data:  A8 75 00 08  returns 0x00 (0000ms, 1056ms total)
T11DC 152:141 JLINK_ReadMem (0x20000EA4, 0x0004 Bytes, ...) -- Read from C cache (4 bytes @ 0x20000EA4) -- Data:  C1 67 00 08  returns 0x00 (0000ms, 1057ms total)
T11DC 152:141 JLINK_ReadMem (0x20000E88, 0x0002 Bytes, ...) -- Read from C cache (2 bytes @ 0x20000E88) -- Data:  95 82  returns 0x00 (0000ms, 1057ms total)
